time (s),/Vin (V),/S0 (V),/S1 (V),/S3 (V),/S4 (V),/S5 (V),/S6 (V),/S2 (V),/S7 (V)
20.00E-6,0.000,27.64E-9,27.57E-9,28.31E-9,28.77E-9,28.62E-9,28.65E-9,28.29E-9,25.94E-9
0.000,0.000,16.84E-9,16.84E-9,16.84E-9,16.84E-9,16.84E-9,16.84E-9,16.84E-9,16.84E-9
17.00E-6,0.000,206.2E-9,209.6E-9,187.6E-9,72.60E-9,69.47E-9,69.79E-9,188.6E-9,40.26E-9
17.08E-6,0.000,90.56E-9,90.69E-9,89.59E-9,66.99E-9,65.04E-9,65.32E-9,89.59E-9,39.30E-9
17.18E-6,0.000,74.89E-9,74.96E-9,74.90E-9,62.00E-9,60.39E-9,60.63E-9,74.88E-9,38.23E-9
17.28E-6,0.000,73.33E-9,73.41E-9,72.74E-9,58.07E-9,56.72E-9,56.92E-9,72.74E-9,37.29E-9
17.47E-6,0.000,58.29E-9,58.32E-9,58.52E-9,51.92E-9,50.93E-9,51.08E-9,58.51E-9,35.63E-9
17.83E-6,0.000,51.63E-9,51.65E-9,51.44E-9,44.42E-9,43.79E-9,43.89E-9,51.43E-9,33.22E-9
18.23E-6,0.000,39.74E-9,39.71E-9,40.27E-9,39.02E-9,38.60E-9,38.67E-9,40.25E-9,31.12E-9
18.33E-6,0.000,42.51E-9,42.50E-9,42.51E-9,38.00E-9,37.61E-9,37.68E-9,42.50E-9,30.68E-9
18.53E-6,0.000,36.47E-9,36.43E-9,37.01E-9,36.20E-9,35.87E-9,35.93E-9,36.99E-9,29.87E-9
18.92E-6,0.000,36.55E-9,36.52E-9,36.67E-9,33.46E-9,33.20E-9,33.25E-9,36.66E-9,28.54E-9
19.32E-6,0.000,30.56E-9,30.51E-9,31.20E-9,31.35E-9,31.14E-9,31.18E-9,31.18E-9,27.42E-9
19.72E-6,0.000,31.92E-9,31.88E-9,32.14E-9,29.73E-9,29.56E-9,29.59E-9,32.13E-9,26.50E-9
20.00E-9,20.00E-3,16.84E-9,16.84E-9,16.84E-9,16.84E-9,16.84E-9,16.84E-9,16.84E-9,16.84E-9
46.19E-9,46.19E-3,16.84E-9,16.84E-9,16.84E-9,16.84E-9,16.84E-9,16.84E-9,16.84E-9,16.84E-9
77.87E-9,77.87E-3,16.84E-9,16.84E-9,16.84E-9,16.84E-9,16.84E-9,16.84E-9,16.84E-9,16.84E-9
16.86E-6,136.8E-3,3.832E-9,679.2E-12,21.77E-9,81.82E-9,79.33E-9,79.80E-9,20.75E-9,42.04E-9
141.2E-9,141.2E-3,16.84E-9,16.84E-9,16.84E-9,16.84E-9,16.84E-9,16.84E-9,16.84E-9,16.84E-9
267.9E-9,267.9E-3,16.84E-9,16.84E-9,16.84E-9,16.84E-9,16.84E-9,16.84E-9,16.84E-9,16.84E-9
16.72E-6,279.6E-3,301.4E-9,305.2E-9,279.2E-9,100.5E-9,94.56E-9,95.25E-9,280.3E-9,44.24E-9
16.61E-6,388.7E-3,126.4E-9,123.6E-9,145.2E-9,119.3E-9,112.2E-9,113.3E-9,144.1E-9,46.17E-9
16.56E-6,443.2E-3,545.5E-9,550.0E-9,514.5E-9,135.3E-9,124.4E-9,125.7E-9,515.7E-9,47.26E-9
16.53E-6,470.5E-3,186.3E-9,183.5E-9,219.1E-9,142.4E-9,131.7E-9,133.2E-9,217.7E-9,47.82E-9
16.52E-6,484.1E-3,1.283E-6,1.289E-6,1.182E-6,148.9E-9,135.7E-9,137.3E-9,1.185E-6,48.12E-9
521.4E-9,521.4E-3,16.84E-9,16.84E-9,16.84E-9,16.84E-9,16.84E-9,16.84E-9,16.84E-9,16.84E-9
16.48E-6,521.6E-3,-231.3E-9,-234.7E-9,-111.6E-9,162.8E-9,148.4E-9,150.3E-9,-114.8E-9,48.94E-9
16.46E-6,545.0E-3,2.759E-6,2.785E-6,2.342E-6,176.1E-9,157.7E-9,159.9E-9,2.352E-6,49.50E-9
16.44E-6,557.3E-3,-14.14E-6,-14.06E-6,-15.62E-6,181.4E-9,163.2E-9,165.6E-9,-15.59E-6,49.77E-9
16.43E-6,565.0E-3,233.1E-6,230.2E-6,271.6E-6,187.7E-9,166.8E-9,169.3E-9,270.8E-6,49.97E-9
16.43E-6,570.5E-3,2.166E-3,2.150E-3,2.425E-3,189.7E-9,169.5E-9,172.1E-9,2.419E-3,50.09E-9
16.43E-6,574.6E-3,8.836E-3,8.790E-3,9.716E-3,194.8E-9,171.6E-9,174.2E-9,9.695E-3,50.20E-9
16.42E-6,577.8E-3,24.92E-3,24.83E-3,27.09E-3,196.1E-9,173.2E-9,176.0E-9,27.04E-3,50.28E-9
16.42E-6,580.5E-3,57.43E-3,57.27E-3,61.84E-3,201.0E-9,174.6E-9,177.4E-9,61.73E-3,50.35E-9
16.42E-6,582.8E-3,118.8E-3,118.6E-3,126.9E-3,201.6E-9,175.9E-9,178.8E-9,126.7E-3,50.41E-9
16.41E-6,585.2E-3,238.0E-3,237.8E-3,252.0E-3,205.1E-9,177.2E-9,180.1E-9,251.6E-3,50.46E-9
16.41E-6,587.4E-3,459.6E-3,459.6E-3,482.1E-3,200.9E-9,178.5E-9,181.4E-9,481.4E-3,50.53E-9
16.41E-6,589.6E-3,821.1E-3,821.7E-3,853.0E-3,194.9E-9,179.7E-9,182.6E-9,852.0E-3,50.57E-9
16.41E-6,591.4E-3,1.292,1.294,1.331,178.4E-9,180.7E-9,183.7E-9,1.330,50.64E-9
16.41E-6,593.7E-3,2.146,2.150,2.185,149.6E-9,182.1E-9,185.1E-9,2.184,50.68E-9
16.40E-6,595.5E-3,2.923,2.928,2.955,110.7E-9,183.1E-9,186.2E-9,2.954,50.77E-9
16.40E-6,596.6E-3,3.412,3.418,3.438,75.00E-9,183.8E-9,186.9E-9,3.437,50.77E-9
16.40E-6,597.3E-3,3.750,3.756,3.772,43.52E-9,184.2E-9,187.3E-9,3.771,50.85E-9
16.40E-6,597.9E-3,3.999,4.006,4.018,14.28E-9,184.5E-9,187.7E-9,4.017,50.85E-9
16.40E-6,598.3E-3,4.193,4.200,4.210,-11.60E-9,184.8E-9,187.9E-9,4.209,50.96E-9
16.40E-6,598.6E-3,4.347,4.354,4.362,-35.09E-9,185.0E-9,188.1E-9,4.361,50.96E-9
16.40E-6,598.9E-3,4.477,4.484,4.490,-52.78E-9,185.2E-9,188.3E-9,4.489,51.06E-9
16.40E-6,599.2E-3,4.584,4.591,4.596,-65.11E-9,185.3E-9,188.5E-9,4.595,50.93E-9
16.40E-6,599.4E-3,4.681,4.688,4.692,-61.30E-9,185.6E-9,188.6E-9,4.691,50.88E-9
16.40E-6,599.6E-3,4.754,4.761,4.764,-48.42E-9,185.5E-9,188.7E-9,4.763,50.31E-9
16.40E-6,599.7E-3,4.813,4.819,4.821,-5.576E-9,185.9E-9,188.8E-9,4.821,50.88E-9
16.40E-6,599.9E-3,4.879,4.884,4.886,104.3E-9,185.3E-9,189.0E-9,4.885,48.26E-9
16.40E-6,600.1E-3,4.927,4.931,4.933,438.2E-9,184.3E-9,189.0E-9,4.932,45.62E-9
16.40E-6,600.2E-3,4.961,4.964,4.965,923.7E-9,184.3E-9,189.1E-9,4.965,45.84E-9
16.40E-6,600.4E-3,4.983,4.985,4.986,1.418E-6,183.3E-9,189.3E-9,4.986,44.72E-9
16.40E-6,600.5E-3,4.994,4.996,4.996,1.874E-6,182.1E-9,189.3E-9,4.996,44.11E-9
16.40E-6,600.5E-3,4.999,5.000,5.000,2.236E-6,180.8E-9,189.3E-9,5.000,44.69E-9
16.40E-6,600.6E-3,5.001,5.001,5.002,2.573E-6,181.1E-9,189.1E-9,5.002,48.19E-9
16.40E-6,600.7E-3,5.002,5.002,5.002,2.835E-6,185.3E-9,188.9E-9,5.002,55.61E-9
16.40E-6,600.7E-3,5.001,5.001,5.001,2.791E-6,193.8E-9,189.2E-9,5.001,70.76E-9
16.40E-6,600.8E-3,5.001,5.001,5.001,2.309E-6,198.0E-9,189.7E-9,5.001,77.94E-9
16.40E-6,600.8E-3,5.001,5.000,5.001,1.368E-6,195.0E-9,189.9E-9,5.001,71.12E-9
16.40E-6,600.9E-3,5.000,5.000,5.000,544.2E-9,189.6E-9,189.6E-9,5.000,55.10E-9
16.40E-6,600.9E-3,5.000,5.000,5.000,275.4E-9,189.2E-9,189.6E-9,5.000,52.11E-9
16.40E-6,601.0E-3,5.000,5.000,5.000,151.1E-9,188.8E-9,189.7E-9,5.000,51.84E-9
16.40E-6,601.1E-3,5.000,5.000,5.000,-126.0E-9,186.6E-9,189.7E-9,5.000,48.33E-9
16.40E-6,601.2E-3,5.000,5.000,5.000,-94.46E-9,186.3E-9,189.8E-9,5.000,50.21E-9
16.40E-6,601.3E-3,5.000,5.000,5.000,-22.69E-9,186.2E-9,189.9E-9,5.000,50.18E-9
16.40E-6,601.4E-3,5.000,5.000,5.000,44.08E-9,185.7E-9,189.9E-9,5.000,49.49E-9
16.40E-6,601.5E-3,5.000,5.000,5.000,132.1E-9,185.8E-9,189.9E-9,5.000,49.26E-9
16.40E-6,601.5E-3,5.000,5.000,5.000,198.1E-9,186.2E-9,189.9E-9,5.000,49.92E-9
16.40E-6,601.6E-3,5.000,5.000,5.000,227.2E-9,186.5E-9,190.0E-9,5.000,50.45E-9
16.40E-6,601.6E-3,5.000,5.000,5.000,241.5E-9,186.8E-9,190.0E-9,5.000,50.79E-9
16.40E-6,601.7E-3,5.000,5.000,5.000,247.2E-9,187.1E-9,190.1E-9,5.000,51.26E-9
16.40E-6,601.7E-3,5.000,5.000,5.000,233.6E-9,187.0E-9,190.1E-9,5.000,51.18E-9
16.40E-6,601.8E-3,5.000,5.000,5.000,223.6E-9,186.9E-9,190.1E-9,5.000,50.92E-9
16.40E-6,601.9E-3,5.000,5.000,5.000,219.9E-9,187.0E-9,190.2E-9,5.000,50.96E-9
16.40E-6,602.0E-3,5.000,5.000,5.000,213.6E-9,187.0E-9,190.3E-9,5.000,50.89E-9
16.40E-6,602.1E-3,5.000,5.000,5.000,212.7E-9,187.1E-9,190.3E-9,5.000,50.90E-9
16.40E-6,602.2E-3,5.000,5.000,5.000,211.7E-9,187.2E-9,190.4E-9,5.000,50.91E-9
16.40E-6,602.3E-3,5.000,5.000,5.000,211.0E-9,187.2E-9,190.5E-9,5.000,50.89E-9
16.40E-6,602.3E-3,5.000,5.000,5.000,212.0E-9,187.3E-9,190.5E-9,5.000,50.87E-9
16.40E-6,602.4E-3,5.000,5.000,5.000,213.0E-9,187.3E-9,190.5E-9,5.000,50.89E-9
16.40E-6,602.5E-3,5.000,5.000,5.000,213.4E-9,187.3E-9,190.6E-9,5.000,50.89E-9
16.40E-6,602.5E-3,5.000,5.000,5.000,213.9E-9,187.4E-9,190.6E-9,5.000,50.90E-9
16.40E-6,602.6E-3,5.000,5.000,5.000,214.0E-9,187.4E-9,190.6E-9,5.000,50.91E-9
16.40E-6,602.6E-3,5.000,5.000,5.000,213.8E-9,187.4E-9,190.7E-9,5.000,50.90E-9
16.40E-6,602.7E-3,5.000,5.000,5.000,213.9E-9,187.5E-9,190.7E-9,5.000,50.90E-9
16.40E-6,602.7E-3,5.000,5.000,5.000,214.0E-9,187.5E-9,190.7E-9,5.000,50.91E-9
16.40E-6,602.8E-3,5.000,5.000,5.000,214.0E-9,187.6E-9,190.8E-9,5.000,50.91E-9
16.40E-6,603.0E-3,5.000,5.000,5.000,214.1E-9,187.7E-9,190.9E-9,5.000,50.91E-9
16.40E-6,603.1E-3,5.000,5.000,5.000,214.2E-9,187.7E-9,191.0E-9,5.000,50.92E-9
16.40E-6,603.1E-3,5.000,5.000,5.000,214.2E-9,187.8E-9,191.0E-9,5.000,50.92E-9
16.40E-6,603.2E-3,5.000,5.000,5.000,214.3E-9,187.8E-9,191.1E-9,5.000,50.92E-9
16.40E-6,603.3E-3,5.000,5.000,5.000,214.3E-9,187.8E-9,191.1E-9,5.000,50.92E-9
16.40E-6,603.3E-3,5.000,5.000,5.000,214.4E-9,187.9E-9,191.1E-9,5.000,50.92E-9
16.40E-6,603.4E-3,5.000,5.000,5.000,214.4E-9,187.9E-9,191.2E-9,5.000,50.92E-9
16.40E-6,603.4E-3,5.000,5.000,5.000,214.5E-9,187.9E-9,191.2E-9,5.000,50.92E-9
16.40E-6,603.5E-3,5.000,5.000,5.000,214.5E-9,188.0E-9,191.2E-9,5.000,50.93E-9
16.40E-6,603.5E-3,5.000,5.000,5.000,214.6E-9,188.0E-9,191.3E-9,5.000,50.93E-9
16.40E-6,603.6E-3,5.000,5.000,5.000,214.6E-9,188.0E-9,191.3E-9,5.000,50.93E-9
16.40E-6,603.7E-3,5.000,5.000,5.000,214.7E-9,188.1E-9,191.4E-9,5.000,50.93E-9
16.40E-6,603.8E-3,5.000,5.000,5.000,214.8E-9,188.2E-9,191.5E-9,5.000,50.93E-9
16.40E-6,603.9E-3,5.000,5.000,5.000,214.9E-9,188.3E-9,191.5E-9,5.000,50.94E-9
16.40E-6,604.0E-3,5.000,5.000,5.000,215.0E-9,188.3E-9,191.6E-9,5.000,50.94E-9
16.40E-6,604.1E-3,5.000,5.000,5.000,215.0E-9,188.3E-9,191.6E-9,5.000,50.94E-9
16.40E-6,604.1E-3,5.000,5.000,5.000,215.0E-9,188.4E-9,191.6E-9,5.000,50.94E-9
16.40E-6,604.2E-3,5.000,5.000,5.000,215.1E-9,188.4E-9,191.7E-9,5.000,50.94E-9
16.40E-6,604.2E-3,5.000,5.000,5.000,215.1E-9,188.4E-9,191.7E-9,5.000,50.94E-9
16.40E-6,604.3E-3,5.000,5.000,5.000,215.2E-9,188.5E-9,191.8E-9,5.000,50.95E-9
16.40E-6,604.4E-3,5.000,5.000,5.000,215.3E-9,188.6E-9,191.9E-9,5.000,50.95E-9
16.40E-6,604.5E-3,5.000,5.000,5.000,215.4E-9,188.6E-9,191.9E-9,5.000,50.95E-9
16.40E-6,604.7E-3,5.000,5.000,5.000,215.5E-9,188.7E-9,192.0E-9,5.000,50.96E-9
16.40E-6,604.8E-3,5.000,5.000,5.000,215.6E-9,188.8E-9,192.1E-9,5.000,50.96E-9
16.40E-6,604.9E-3,5.000,5.000,5.000,215.7E-9,188.8E-9,192.1E-9,5.000,50.96E-9
16.40E-6,604.9E-3,5.000,5.000,5.000,215.7E-9,188.9E-9,192.2E-9,5.000,50.96E-9
16.40E-6,605.0E-3,5.000,5.000,5.000,215.8E-9,188.9E-9,192.2E-9,5.000,50.96E-9
16.39E-6,605.0E-3,5.000,5.000,5.000,215.8E-9,189.0E-9,192.2E-9,5.000,50.97E-9
16.39E-6,605.1E-3,5.000,5.000,5.000,215.9E-9,189.0E-9,192.3E-9,5.000,50.97E-9
16.39E-6,605.2E-3,5.000,5.000,5.000,215.9E-9,189.0E-9,192.3E-9,5.000,50.97E-9
16.39E-6,605.3E-3,5.000,5.000,5.000,216.0E-9,189.1E-9,192.4E-9,5.000,50.97E-9
16.39E-6,605.4E-3,5.000,5.000,5.000,216.1E-9,189.2E-9,192.5E-9,5.000,50.97E-9
16.39E-6,605.5E-3,5.000,5.000,5.000,216.3E-9,189.3E-9,192.6E-9,5.000,50.98E-9
16.39E-6,605.7E-3,5.000,5.000,5.000,216.4E-9,189.3E-9,192.7E-9,5.000,50.98E-9
16.39E-6,605.7E-3,5.000,5.000,5.000,216.4E-9,189.4E-9,192.7E-9,5.000,50.98E-9
16.39E-6,605.8E-3,5.000,5.000,5.000,216.5E-9,189.4E-9,192.7E-9,5.000,50.99E-9
16.39E-6,605.8E-3,5.000,5.000,5.000,216.5E-9,189.5E-9,192.8E-9,5.000,50.99E-9
16.39E-6,605.9E-3,5.000,5.000,5.000,216.6E-9,189.5E-9,192.8E-9,5.000,50.99E-9
16.39E-6,606.0E-3,5.000,5.000,5.000,216.6E-9,189.5E-9,192.9E-9,5.000,50.99E-9
16.39E-6,606.0E-3,5.000,5.000,5.000,216.7E-9,189.6E-9,192.9E-9,5.000,50.99E-9
16.39E-6,606.2E-3,5.000,5.000,5.000,216.8E-9,189.7E-9,193.0E-9,5.000,50.99E-9
16.39E-6,606.3E-3,5.000,5.000,5.000,216.9E-9,189.7E-9,193.1E-9,5.000,51.00E-9
16.39E-6,606.4E-3,5.000,5.000,5.000,217.0E-9,189.8E-9,193.2E-9,5.000,51.00E-9
16.39E-6,606.5E-3,5.000,5.000,5.000,217.1E-9,189.9E-9,193.2E-9,5.000,51.00E-9
16.39E-6,606.6E-3,5.000,5.000,5.000,217.2E-9,190.0E-9,193.3E-9,5.000,51.01E-9
16.39E-6,606.7E-3,5.000,5.000,5.000,217.2E-9,190.0E-9,193.3E-9,5.000,51.01E-9
16.39E-6,606.7E-3,5.000,5.000,5.000,217.3E-9,190.0E-9,193.4E-9,5.000,51.01E-9
16.39E-6,606.8E-3,5.000,5.000,5.000,217.3E-9,190.1E-9,193.4E-9,5.000,51.01E-9
16.39E-6,606.8E-3,5.000,5.000,5.000,217.4E-9,190.1E-9,193.4E-9,5.000,51.01E-9
606.8E-9,606.8E-3,16.84E-9,16.84E-9,16.84E-9,16.84E-9,16.84E-9,16.84E-9,16.84E-9,16.84E-9
16.39E-6,606.9E-3,5.000,5.000,5.000,217.4E-9,190.1E-9,193.5E-9,5.000,51.01E-9
16.39E-6,606.9E-3,5.000,5.000,5.000,217.5E-9,190.2E-9,193.5E-9,5.000,51.01E-9
16.39E-6,607.0E-3,5.000,5.000,5.000,217.5E-9,190.2E-9,193.6E-9,5.000,51.02E-9
16.39E-6,607.1E-3,5.000,5.000,5.000,217.6E-9,190.3E-9,193.6E-9,5.000,51.02E-9
16.39E-6,607.3E-3,5.000,5.000,5.000,217.7E-9,190.4E-9,193.7E-9,5.000,51.02E-9
16.39E-6,607.4E-3,5.000,5.000,5.000,217.8E-9,190.5E-9,193.8E-9,5.000,51.03E-9
16.39E-6,607.5E-3,5.000,5.000,5.000,217.9E-9,190.5E-9,193.9E-9,5.000,51.03E-9
16.39E-6,607.5E-3,5.000,5.000,5.000,218.0E-9,190.5E-9,193.9E-9,5.000,51.03E-9
16.39E-6,607.6E-3,5.000,5.000,5.000,218.0E-9,190.6E-9,193.9E-9,5.000,51.03E-9
16.39E-6,607.6E-3,5.000,5.000,5.000,218.1E-9,190.6E-9,194.0E-9,5.000,51.03E-9
16.39E-6,607.7E-3,5.000,5.000,5.000,218.1E-9,190.7E-9,194.0E-9,5.000,51.03E-9
16.39E-6,607.7E-3,5.000,5.000,5.000,218.2E-9,190.7E-9,194.1E-9,5.000,51.04E-9
16.39E-6,607.8E-3,5.000,5.000,5.000,218.2E-9,190.7E-9,194.1E-9,5.000,51.04E-9
16.39E-6,607.9E-3,5.000,5.000,5.000,218.3E-9,190.8E-9,194.1E-9,5.000,51.04E-9
16.39E-6,608.0E-3,5.000,5.000,5.000,218.4E-9,190.8E-9,194.2E-9,5.000,51.04E-9
16.39E-6,608.1E-3,5.000,5.000,5.000,218.5E-9,190.9E-9,194.3E-9,5.000,51.05E-9
16.39E-6,608.2E-3,5.000,5.000,5.000,218.6E-9,191.0E-9,194.4E-9,5.000,51.05E-9
16.39E-6,608.3E-3,5.000,5.000,5.000,218.7E-9,191.1E-9,194.4E-9,5.000,51.05E-9
16.39E-6,608.4E-3,5.000,5.000,5.000,218.7E-9,191.1E-9,194.5E-9,5.000,51.05E-9
16.39E-6,608.4E-3,5.000,5.000,5.000,218.8E-9,191.1E-9,194.5E-9,5.000,51.05E-9
16.39E-6,608.5E-3,5.000,5.000,5.000,218.8E-9,191.2E-9,194.6E-9,5.000,51.06E-9
16.39E-6,608.6E-3,5.000,5.000,5.000,218.9E-9,191.2E-9,194.6E-9,5.000,51.06E-9
16.39E-6,608.6E-3,5.000,5.000,5.000,218.9E-9,191.3E-9,194.6E-9,5.000,51.06E-9
16.39E-6,608.7E-3,5.000,5.000,5.000,219.0E-9,191.3E-9,194.7E-9,5.000,51.06E-9
16.39E-6,608.7E-3,5.000,5.000,5.000,219.0E-9,191.3E-9,194.7E-9,5.000,51.06E-9
16.39E-6,608.9E-3,5.000,5.000,5.000,219.1E-9,191.4E-9,194.8E-9,5.000,51.06E-9
16.39E-6,609.0E-3,5.000,5.000,5.000,219.3E-9,191.5E-9,194.9E-9,5.000,51.07E-9
16.39E-6,609.1E-3,5.000,5.000,5.000,219.4E-9,191.6E-9,195.0E-9,5.000,51.07E-9
16.39E-6,609.2E-3,5.000,5.000,5.000,219.4E-9,191.6E-9,195.0E-9,5.000,51.07E-9
16.39E-6,609.3E-3,5.000,5.000,5.000,219.5E-9,191.7E-9,195.1E-9,5.000,51.07E-9
16.39E-6,609.3E-3,5.000,5.000,5.000,219.5E-9,191.7E-9,195.1E-9,5.000,51.08E-9
16.39E-6,609.4E-3,5.000,5.000,5.000,219.6E-9,191.8E-9,195.2E-9,5.000,51.08E-9
16.39E-6,609.4E-3,5.000,5.000,5.000,219.6E-9,191.8E-9,195.2E-9,5.000,51.08E-9
16.39E-6,609.5E-3,5.000,5.000,5.000,219.7E-9,191.8E-9,195.2E-9,5.000,51.08E-9
16.39E-6,609.5E-3,5.000,5.000,5.000,219.7E-9,191.9E-9,195.3E-9,5.000,51.08E-9
16.39E-6,609.6E-3,5.000,5.000,5.000,219.8E-9,191.9E-9,195.3E-9,5.000,51.08E-9
16.39E-6,609.7E-3,5.000,5.000,5.000,219.9E-9,192.0E-9,195.4E-9,5.000,51.09E-9
16.39E-6,609.9E-3,5.000,5.000,5.000,220.0E-9,192.1E-9,195.5E-9,5.000,51.09E-9
16.39E-6,610.0E-3,5.000,5.000,5.000,220.1E-9,192.1E-9,195.6E-9,5.000,51.09E-9
16.39E-6,610.1E-3,5.000,5.000,5.000,220.2E-9,192.2E-9,195.6E-9,5.000,51.10E-9
16.39E-6,610.1E-3,5.000,5.000,5.000,220.3E-9,192.2E-9,195.7E-9,5.000,51.10E-9
16.39E-6,610.2E-3,5.000,5.000,5.000,220.3E-9,192.3E-9,195.7E-9,5.000,51.10E-9
16.39E-6,610.2E-3,5.000,5.000,5.000,220.4E-9,192.3E-9,195.7E-9,5.000,51.10E-9
16.39E-6,610.3E-3,5.000,5.000,5.000,220.4E-9,192.3E-9,195.8E-9,5.000,51.10E-9
16.39E-6,610.3E-3,5.000,5.000,5.000,220.5E-9,192.4E-9,195.8E-9,5.000,51.10E-9
16.39E-6,610.4E-3,5.000,5.000,5.000,220.5E-9,192.4E-9,195.8E-9,5.000,51.10E-9
16.39E-6,610.4E-3,5.000,5.000,5.000,220.6E-9,192.4E-9,195.9E-9,5.000,51.10E-9
16.39E-6,610.5E-3,5.000,5.000,5.000,220.7E-9,192.5E-9,195.9E-9,5.000,51.11E-9
16.39E-6,610.7E-3,5.000,5.000,5.000,220.8E-9,192.6E-9,196.0E-9,5.000,51.11E-9
16.39E-6,610.8E-3,5.000,5.000,5.000,220.9E-9,192.7E-9,196.1E-9,5.000,51.11E-9
16.39E-6,610.9E-3,5.000,5.000,5.000,221.0E-9,192.8E-9,196.2E-9,5.000,51.12E-9
16.39E-6,611.0E-3,5.000,5.000,5.000,221.0E-9,192.8E-9,196.2E-9,5.000,51.12E-9
16.39E-6,611.0E-3,5.000,5.000,5.000,221.1E-9,192.8E-9,196.3E-9,5.000,51.12E-9
16.39E-6,611.1E-3,5.000,5.000,5.000,221.1E-9,192.9E-9,196.3E-9,5.000,51.12E-9
16.39E-6,611.1E-3,5.000,5.000,5.000,221.2E-9,192.9E-9,196.4E-9,5.000,51.12E-9
16.39E-6,611.2E-3,5.000,5.000,5.000,221.2E-9,192.9E-9,196.4E-9,5.000,51.12E-9
16.39E-6,611.2E-3,5.000,5.000,5.000,221.3E-9,193.0E-9,196.4E-9,5.000,51.13E-9
16.39E-6,611.3E-3,5.000,5.000,5.000,221.3E-9,193.0E-9,196.5E-9,5.000,51.13E-9
16.39E-6,611.4E-3,5.000,5.000,5.000,221.4E-9,193.1E-9,196.5E-9,5.000,51.13E-9
16.39E-6,611.5E-3,5.000,5.000,5.000,221.5E-9,193.2E-9,196.6E-9,5.000,51.13E-9
16.39E-6,611.6E-3,5.000,5.000,5.000,221.6E-9,193.2E-9,196.7E-9,5.000,51.14E-9
16.39E-6,611.7E-3,5.000,5.000,5.000,221.7E-9,193.3E-9,196.8E-9,5.000,51.14E-9
16.39E-6,611.8E-3,5.000,5.000,5.000,221.8E-9,193.4E-9,196.8E-9,5.000,51.14E-9
16.39E-6,611.9E-3,5.000,5.000,5.000,221.9E-9,193.4E-9,196.9E-9,5.000,51.14E-9
16.39E-6,611.9E-3,5.000,5.000,5.000,221.9E-9,193.4E-9,196.9E-9,5.000,51.14E-9
16.39E-6,612.0E-3,5.000,5.000,5.000,222.0E-9,193.5E-9,196.9E-9,5.000,51.15E-9
16.39E-6,612.0E-3,5.000,5.000,5.000,222.0E-9,193.5E-9,197.0E-9,5.000,51.15E-9
16.39E-6,612.1E-3,5.000,5.000,5.000,222.0E-9,193.5E-9,197.0E-9,5.000,51.15E-9
16.39E-6,612.1E-3,5.000,5.000,5.000,222.1E-9,193.6E-9,197.0E-9,5.000,51.15E-9
16.39E-6,612.2E-3,5.000,5.000,5.000,222.1E-9,193.6E-9,197.1E-9,5.000,51.15E-9
16.39E-6,612.2E-3,5.000,5.000,5.000,222.1E-9,193.6E-9,197.1E-9,5.000,51.15E-9
16.39E-6,612.2E-3,5.000,5.000,5.000,222.2E-9,193.6E-9,197.1E-9,5.000,51.15E-9
16.39E-6,612.3E-3,5.000,5.000,5.000,222.2E-9,193.7E-9,197.1E-9,5.000,51.15E-9
16.39E-6,612.3E-3,5.000,5.000,5.000,222.3E-9,193.7E-9,197.2E-9,5.000,51.15E-9
16.39E-6,612.4E-3,5.000,5.000,5.000,222.3E-9,193.7E-9,197.2E-9,5.000,51.15E-9
16.39E-6,612.4E-3,5.000,5.000,5.000,222.3E-9,193.8E-9,197.2E-9,5.000,51.16E-9
16.39E-6,612.4E-3,5.000,5.000,5.000,222.3E-9,193.8E-9,197.3E-9,5.000,51.16E-9
16.39E-6,612.5E-3,5.000,5.000,5.000,222.4E-9,193.8E-9,197.3E-9,5.000,51.16E-9
16.39E-6,612.5E-3,5.000,5.000,5.000,222.4E-9,193.8E-9,197.3E-9,5.000,51.16E-9
16.39E-6,612.5E-3,5.000,5.000,5.000,222.4E-9,193.8E-9,197.3E-9,5.000,51.16E-9
16.39E-6,612.6E-3,5.000,5.000,5.000,222.5E-9,193.9E-9,197.4E-9,5.000,51.16E-9
16.39E-6,612.6E-3,5.000,5.000,5.000,222.5E-9,193.9E-9,197.4E-9,5.000,51.16E-9
16.39E-6,612.7E-3,5.000,5.000,5.000,222.5E-9,193.9E-9,197.4E-9,5.000,51.16E-9
16.39E-6,612.7E-3,5.000,5.000,5.000,222.5E-9,194.0E-9,197.4E-9,5.000,51.16E-9
16.39E-6,612.7E-3,5.000,5.000,5.000,222.6E-9,194.0E-9,197.5E-9,5.000,51.16E-9
16.39E-6,612.8E-3,5.000,5.000,5.000,222.6E-9,194.0E-9,197.5E-9,5.000,51.17E-9
16.39E-6,612.9E-3,5.000,5.000,5.000,222.6E-9,194.1E-9,197.6E-9,5.000,51.17E-9
16.39E-6,612.9E-3,5.000,5.000,5.000,222.7E-9,194.1E-9,197.6E-9,5.000,51.17E-9
16.39E-6,613.0E-3,5.000,5.000,5.000,222.6E-9,194.2E-9,197.6E-9,5.000,51.17E-9
16.39E-6,613.1E-3,5.000,5.000,5.000,222.9E-9,194.2E-9,197.7E-9,5.000,51.17E-9
16.39E-6,613.3E-3,5.000,5.000,5.000,222.4E-9,194.3E-9,197.8E-9,5.000,51.18E-9
16.39E-6,613.4E-3,5.000,5.000,5.000,223.5E-9,194.4E-9,197.9E-9,5.000,51.18E-9
16.39E-6,613.7E-3,5.000,5.000,5.000,222.6E-9,194.7E-9,198.1E-9,5.000,51.19E-9
16.39E-6,613.9E-3,5.000,5.000,5.000,223.0E-9,194.7E-9,198.3E-9,5.000,51.19E-9
16.39E-6,614.5E-3,5.000,5.000,5.000,224.6E-9,195.3E-9,198.7E-9,5.000,51.21E-9
16.39E-6,614.8E-3,5.000,5.000,5.000,221.7E-9,195.2E-9,198.9E-9,5.000,51.22E-9
16.38E-6,615.8E-3,5.000,5.000,5.000,228.7E-9,196.3E-9,199.6E-9,5.000,51.24E-9
16.38E-6,616.3E-3,5.000,5.000,5.000,220.0E-9,196.1E-9,200.0E-9,5.000,51.26E-9
16.38E-6,617.3E-3,5.000,5.000,5.000,234.6E-9,197.5E-9,200.7E-9,5.000,51.28E-9
16.38E-6,619.4E-3,5.000,5.000,5.000,220.2E-9,198.2E-9,202.2E-9,5.000,51.34E-9
16.38E-6,623.5E-3,5.000,5.000,5.000,244.5E-9,201.9E-9,205.3E-9,5.000,51.45E-9
16.36E-6,644.1E-3,5.000,5.000,5.000,241.3E-9,217.4E-9,222.3E-9,5.000,52.00E-9
649.5E-9,649.5E-3,16.84E-9,16.84E-9,16.84E-9,16.84E-9,16.84E-9,16.84E-9,16.84E-9,16.84E-9
16.33E-6,669.9E-3,5.000,5.000,5.000,307.7E-9,243.1E-9,248.4E-9,5.000,52.72E-9
670.9E-9,670.9E-3,16.84E-9,16.84E-9,16.84E-9,16.84E-9,16.84E-9,16.84E-9,16.84E-9,16.84E-9
16.30E-6,695.9E-3,5.000,5.000,5.000,318.2E-9,274.7E-9,282.4E-9,5.000,53.47E-9
713.6E-9,713.6E-3,16.84E-9,16.84E-9,16.84E-9,16.84E-9,16.84E-9,16.84E-9,16.84E-9,16.84E-9
16.28E-6,718.1E-3,5.000,5.000,5.000,428.5E-9,311.1E-9,320.2E-9,5.000,54.14E-9
726.3E-9,726.3E-3,16.84E-9,16.84E-9,16.84E-9,16.84E-9,16.84E-9,16.84E-9,16.84E-9,16.84E-9
